#  HZ   S   RI   R     50.00 
! Rohde & Schwarz Vector Network Analyzer 
! Rohde-Schwarz,ZNB40-4Port,1311601084101740,3.32
! Created: UTC 3/2/2022, 12:40:09 PM
! freq[Hz]                re:S11                  im:S11                  re:S21                  im:S21                  re:S12                  im:S12                  re:S22                  im:S22
 1.000000000000000E5     1.120648830074927E-3   -4.598247466898325E-4    1.000433373459174       2.428975016130444E-3    1.002607068942199       4.148795606843982E-4    3.089485617676913E-4   -3.425301035849676E-5
 1.001290754289801E5     1.208264754094801E-4   -1.248628419042559E-3    1.000560621652724       1.609012909183380E-3    1.001997692517519       2.903234660509776E-4    1.814885170030561E-3    6.395306598311820E-4
 1.002583174626241E5     7.468515194466452E-4   -9.831710590096632E-4    1.000976002376129       1.208874010876458E-3    1.001687993102004       1.597988257404663E-3    1.924653957735056E-3    1.035310103298881E-3
 1.003877263159772E5     7.676229692748227E-4    1.021807643743697E-4    1.000045530760098       4.517546593674898E-4    1.001634116829641       1.417314012341464E-3    2.134636738833157E-3   -2.894661643501745E-4
 1.005173022043629E5     1.836755286435704E-3   -1.231705307238609E-3    1.000816410948619       1.887251460934544E-3    1.002954781513306       1.428052389147722E-3    2.138861301603318E-3    3.691001957246004E-4
 1.006470453433824E5     2.041998839258125E-3   -1.040576346890559E-4    1.001611812387643       1.737427382452920E-3    1.002776014608998       8.546410333776806E-4    2.553467467974746E-3   -3.076081293946348E-5
 1.007769559489154E5     4.356114458746729E-4   -7.300171398099062E-4    1.000347679819146       1.092315394862453E-3    1.000525501513170       1.996999220450652E-3    2.022257138605543E-3    1.213176182938147E-4
 1.009070342371195E5     1.595785138731293E-3   -2.868021522595826E-5    9.994609085259607E-1    4.186614751904745E-4    1.001221590976649       8.339455737908369E-4    1.269826879947034E-3   -3.724301222021720E-5
 1.010372804244322E5     6.282836301186034E-4   -1.295302642212906E-3    1.000259266877543       6.369046715581153E-4    1.002250092423586      -7.670205458461254E-5    1.586132343840002E-3   -4.449533338844944E-4
 1.011676947275701E5    -9.594377143349597E-4   -6.020926015102221E-4    9.993691192272549E-1    6.502289879461651E-5    9.992531785907255E-1    3.323168759733069E-4    1.704184928258551E-3   -4.680407530686659E-4
 1.012982773635289E5     2.052170090810379E-3   -5.731857927362971E-6    1.001900260482534       1.283914104151187E-3    1.002711943199340       5.808878948090623E-4    2.009382192193931E-3   -3.153146981479601E-4
 1.014290285495854E5     1.416959759670378E-3    9.603213747342715E-4    1.000178715467437       3.063379169990093E-3    1.001945877356004       1.329322035855575E-3    7.564459498205223E-4    1.423403736488034E-3
 1.015599485032963E5     8.370810913289339E-4   -1.007465543316932E-3    1.000221003918182       1.846605085145454E-3    1.000416274886731       3.760897779234267E-4   -3.993753042501602E-4    1.502503175060822E-3
 1.016910374424989E5     4.651643098652070E-5   -4.162336041582393E-4    9.995605667483817E-1    1.097546236855981E-3    1.002239190490046       1.083806521651662E-3    2.156711723029808E-3   -2.132978211310324E-4
 1.018222955853121E5    -3.622449469643241E-4   -8.326453485951388E-4    9.994204269210292E-1    5.703195728012887E-4    1.000778981923470       1.482321317274153E-3    2.577841099599909E-3    3.054051032909261E-4
 1.019537231501362E5     1.764533874621832E-3   -1.497485869705280E-3    1.001576710631712       1.342330264768633E-3    1.001549927056952       8.682241579488197E-4    1.838651487637510E-3    4.692820296234787E-4
 1.020853203556537E5     1.333158398427126E-3   -7.551499532225253E-4    1.001323038881979      -2.518279743409027E-4    1.001492090597323       3.502844158337001E-4    9.321223092194630E-4    1.923059211300232E-4
 1.022170874208284E5     1.474404255532913E-3   -5.337450379748962E-4    1.000116765146710       1.647682610970338E-3    1.001995157079464      -7.695153294193929E-4    1.260731768513101E-3    1.236739964749496E-3
 1.023490245649078E5     1.455898942977207E-3   -1.742569052348326E-3    9.999347477223239E-1    1.131830427838591E-4    1.000752730478346      -2.749718688769172E-4    6.293018174897136E-4   -8.057447319214164E-4
 1.024811320074221E5     1.297748540909721E-3   -7.581614802126407E-4    1.001550251681139      -3.449224345467711E-5    1.001067864179674       1.382491069204680E-3    2.404853992676870E-3   -1.134042738513349E-3
 1.026134099681844E5     5.015229028625945E-4   -6.253288798799550E-4    1.001137081214336      -1.899969114455800E-4    1.001480991793342      -4.144077285660810E-4    3.159888527489302E-3   -6.225242133330172E-4
 1.027458586672919E5     1.870665116873754E-3    8.407729776467240E-4    9.995753536259334E-1    1.134572188992478E-3    1.001581316029900       1.788509160944448E-3    8.087886776574349E-4   -1.612456861420988E-4
 1.028784783251260E5     1.357872016704897E-3    3.495270411634777E-4    1.000092019412423       1.501201159596574E-3    1.001460130537378       8.211951017691645E-4    1.399867381382730E-3    1.419126534610751E-3
 1.030112691623526E5     1.225033905008582E-3   -6.764145301534907E-4    1.000763763126039       5.682929079300902E-4    1.001014143575352       4.870286314571266E-4    1.187369279273626E-3   -6.374274811837555E-4
 1.031442313999217E5     6.188590796629978E-4   -1.180086997527106E-3    1.000101330311088       1.223608017327276E-3    1.001455504561044      -5.503482373686065E-4    2.909700597740761E-3    6.251852687151754E-4
 1.032773652590694E5    -3.519742523143687E-4   -4.399566745318870E-4    1.000420943201868       1.161450144909355E-3    1.000899713391685      -1.091691442531538E-4    2.134651985572306E-3   -7.919218586328186E-5
 1.034106709613171E5     1.048309905144928E-3    1.001348817424953E-3    1.000694938489673       1.149356905778899E-3    1.002385212730087       7.262810834990970E-4    2.081950793839799E-3    3.796061210690968E-4
 1.035441487284716E5     9.448770285190311E-4   -8.643007944616962E-4    9.987261675569770E-1    4.300899721293126E-4    1.002610396838762      -9.338411656448567E-5    2.231237373066408E-3    8.244659954451117E-5
 1.036777987826267E5     1.459282044249083E-3   -9.212751327410881E-4    9.994767436720267E-1   -8.162804278415148E-5    1.001489047308985       2.184264659334974E-4    1.297056887007125E-3   -3.452440597202788E-4
 1.038116213461627E5     3.439101223034119E-3   -1.358509779551265E-3    1.000030486186573       6.097890886158641E-4    1.001903307864393       1.108455161524222E-3    6.321281270357526E-4    8.389689851124454E-5
 1.039456166417465E5     1.712531665476164E-3    2.877870833053534E-4    1.000991625545751       3.202654945736912E-4    1.003232959664565       1.037239365223097E-3    3.177433833597920E-3    1.096396866487458E-3
 1.040797848923328E5     1.648839270948554E-3   -8.379489634742152E-4    1.000504531567686      -6.187413910755182E-4    1.002508129314507       6.054186110033138E-4    6.548732512534350E-4   -1.862997272270087E-4
 1.042141263211641E5     1.643313960329462E-4   -2.572088854979823E-4    9.977102462472407E-1    1.557958079874532E-3    1.000919815105364      -7.348569875036473E-4    1.524059483569429E-4    6.934290584079406E-4
 1.043486411517713E5     1.623156628938333E-3   -7.809515325367597E-4    9.995126572869304E-1    6.024848329209652E-4    1.001151315885151       7.972229285688713E-4    1.493592534945631E-3    1.177258262140372E-3
 1.044833296079728E5     2.968454811443644E-4   -1.250872116877050E-4    1.000653191263673       1.232453003464168E-3    1.000559658774770       1.274792448724627E-3    2.130681476969737E-3    5.307520589704628E-4
 1.046181919138770E5     7.940284281593435E-4    3.428641730260154E-4    1.000779769190790       1.532279340886292E-3    1.001556877474679       8.157925758313471E-4    8.737911454821112E-4    3.781045352272694E-4
 1.047532282938813E5     1.778551039597398E-3   -2.002855395723445E-3    1.001877053909318      -6.540373503205188E-4    1.001188184136247      -7.156032405551474E-4    2.462495889560129E-3   -9.119616178422385E-4
 1.048884389726721E5     4.810512302698133E-4   -1.279515459055948E-3    9.982959429027021E-1    2.189329387869109E-4    1.000714965187808      -5.739143404514049E-4   -1.828910551588681E-4   -1.127188666057231E-3
 1.050238241752266E5     2.080246506945327E-3   -3.842189910853791E-4    9.990777301105589E-1    8.443444639997608E-4    1.003485433497346      -3.758266089249271E-4    1.767243498327464E-3   -1.053398992522513E-3
 1.051593841268121E5     1.457423237865796E-3   -1.159038172657403E-3    1.001090909985810       1.107737538604599E-3    1.001362981279325      -1.923906861695340E-3    1.097750848381956E-3   -3.260343039698868E-4
 1.052951190529868E5     2.654621117376410E-4   -1.078740641316189E-3    9.991046236482392E-1   -2.213342346431210E-4    9.998724058198510E-1    3.799480983024406E-5    1.234036158070551E-3    4.642660534223339E-4
 1.054310291795996E5     2.306907368565925E-3   -1.463107329112499E-3    9.987714977370892E-1   -8.947965833226053E-4    1.001967878089082      -8.517536468291356E-4    1.876772045800917E-3   -1.640535307716878E-4
 1.055671147327913E5     1.179037357402962E-3   -1.904084862946812E-4    1.000566027167949      -3.290614021076582E-4    1.001240796752397       1.052884695436174E-3    2.335517473743304E-3    1.627867936891750E-4
 1.057033759389948E5     1.679283553453953E-3   -9.979714907283541E-4    1.000683208965878       1.083963944448450E-4    1.001570608713151       4.366418342349500E-4    1.161613498474573E-3    8.215174847473403E-4
 1.058398130249345E5     2.476913029918204E-4   -1.018887288191675E-3    9.996300721133055E-1   -1.208625535243871E-3    1.000014626879123      -1.288046302344231E-3    9.342712166348910E-4   -6.364922118462513E-4
 1.059764262176281E5     9.678119455318324E-4   -1.016530026260322E-3    1.000880263596433      -1.627164840875654E-4    1.002164324714422       3.984360744970043E-4    1.988442914190924E-3   -6.048990439421614E-5
 1.061132157443865E5     1.947630901868197E-3   -1.825165447483158E-3    9.998018975285479E-1    7.077084144777243E-4    1.002303313948472      -1.162582866760895E-3    1.410795439387352E-3    1.156101462243708E-3
 1.062501818328132E5     1.427112125664765E-3   -9.851884488946139E-4    1.001777694696199      -5.351808111058523E-4    1.001081369820044       1.017384902674764E-4    3.560194699527702E-3   -4.642092817551263E-4
 1.063873247108060E5     2.873604504306515E-4    1.547353200695115E-3    1.000582779131496       6.781709022853754E-4    1.000986069008483       9.343892083810354E-4    1.674725769865243E-3   -4.582203644133906E-4
 1.065246446065569E5     2.199957440650907E-3   -5.096450365222813E-4    1.001089452408192      -1.105854832650702E-5    1.001101589918491      -5.543347856469989E-4    1.747250864879979E-3    4.521194873661691E-4
 1.066621417485526E5     1.923506663168123E-3   -1.969689644334409E-3    9.997657093215327E-1   -1.783478220853254E-3    1.002801958528511      -6.346612259397373E-4    4.942736229311961E-4    1.046125019716043E-3
 1.067998163655739E5     8.208614199633757E-4   -9.917835671300682E-4    1.000431620473369      -5.476621611154517E-4    1.000593833390917      -1.966078913085926E-3    8.147885159885127E-4    1.628349634111431E-4
 1.069376686866977E5     6.232259543751395E-4    2.417726405797849E-4    1.001272070590125       7.846394342244864E-5    1.000997273117470       4.544417088644635E-4    1.532081311117345E-3    3.066487785585992E-4
 1.070756989412966E5     1.926506415479867E-3   -7.365235129127012E-4    1.000038433001466      -3.547847946416133E-5    1.000828032241116       4.453909572126186E-4    7.185803221069209E-4   -2.665312355593988E-4
 1.072139073590385E5     3.947665841256554E-4   -2.211770412676027E-3    1.000682188455607      -1.843890532443535E-4    1.000489175930363      -3.732780932539786E-4    1.543397218183751E-3    2.082793108375627E-4
 1.073522941698885E5    -2.845484209244020E-4   -4.380041181321487E-4    9.997044131677437E-1   -6.980611789029860E-4    1.000243569722517       5.524988837548109E-4    1.056605112903508E-3   -1.093781960106205E-3
 1.074908596041083E5     1.588029401739688E-3   -1.504563736713156E-3    9.997470080930344E-1    8.195718016809524E-4    1.000762117889840      -1.314863619818699E-3    5.513457344709927E-4   -2.292201226974863E-4
 1.076296038922569E5     4.361019143496458E-4   -1.821284896521079E-3    1.000053900657556      -8.589421350177415E-4    1.000746207303561       8.180292043990720E-4    1.176396084626580E-3    1.500350087005234E-3
 1.077685272651904E5     3.783912131163913E-4   -1.040078113205771E-3    9.997138489334645E-1   -1.668383697366882E-4    1.002147680014243       1.862319550612335E-4    1.078785716019826E-3    3.865324522726171E-5
 1.079076299540635E5    -1.344369460774264E-4   -7.016881576291170E-4    9.993530159826657E-1   -9.417097262135812E-4    1.000573397271753      -6.139735543548436E-4    1.167089024598195E-3   -8.820319917836814E-4
 1.080469121903292E5     2.442248187633056E-3   -8.118466141014621E-4    1.000611201471250      -1.451578379208021E-4    1.001715762352002       3.350105455670674E-4    1.143686269313382E-3   -5.986676746496250E-4
 1.081863742057386E5     7.792158608735666E-4    7.360320974697174E-4    1.000844272763990      -3.584928441842730E-4    1.001596357635828       5.607773569574030E-4    1.397068884433389E-3    7.643054291975732E-4
 1.083260162323427E5     1.756473106957285E-3   -1.552582329482292E-3    9.986885028871691E-1    2.985952445102857E-4    1.000332930718852      -8.572914828369020E-4    1.927533186990488E-3    1.245247113337997E-3
 1.084658385024919E5     1.589921705241693E-3   -4.708060055161403E-4    1.000707123448211      -1.539495446608332E-3    1.001276028285307      -7.302776254449611E-4    1.850123393814629E-3   -1.502086132404948E-3
 1.086058412488358E5     4.666150009496606E-4   -1.290645195417800E-3    9.994722198548636E-1   -1.537909404140968E-3    1.001632468631622      -1.886186675681984E-3    1.837602409482469E-3   -1.570465634379493E-3
 1.087460247043252E5     1.276109435424028E-3   -1.701456634089250E-3    9.987549823476854E-1   -1.930162576768944E-3    1.000727374706572      -3.790874261678269E-4    8.259064063873001E-4    4.141800898530279E-4
 1.088863891022111E5     1.397335187221765E-3   -1.493440594215356E-3    9.998087781990594E-1   -1.320473331400330E-3    1.001072891510456      -1.270482348855968E-3    7.047693726938697E-4    4.216500054481792E-4
 1.090269346760460E5     9.920291108204693E-4   -1.531555638254085E-3    1.000042304884700      -1.848721697120630E-4    1.001264993683345      -1.539746804817877E-3    1.166607740043235E-3   -3.593643983465511E-4
 1.091676616596829E5    -3.730164298658967E-4    1.322262028144450E-4    9.997069396218085E-1   -1.315447573447915E-3    1.001846759570639      -3.201888304331588E-4    8.264016822091824E-4   -7.573433482162620E-4
 1.093085702872777E5     1.403842153504115E-3   -5.101114933710876E-5    1.000252113830226       4.849635173890116E-4    1.002164659368138      -3.247279566763149E-4    1.571030191015677E-3    4.014245511858375E-4
 1.094496607932882E5     2.157947024794576E-3    2.163572096830144E-4    1.000542212388324      -4.887545413365356E-4    1.001637447502866       5.184303744892142E-4    2.476777869801355E-3   -1.436731686920989E-4
 1.095909334124744E5     2.144610808117314E-3    7.570146384000900E-4    9.997075748917368E-1   -1.162601135433775E-3    1.002323904600758      -1.020190816746445E-4    2.548806617970384E-3   -8.800979601489844E-4
 1.097323883798999E5     1.225909189395663E-3   -1.065328893089558E-3    1.000771991794123      -2.216632868139220E-3    1.000741655761664      -1.190052190513536E-3    2.136721628619387E-3   -1.814395674092660E-3
 1.098740259309313E5     2.866372264077877E-4   -6.617837094332682E-4    9.994483626139969E-1    1.013652832814498E-3    1.001945039535821      -3.760609599833750E-4    1.532950693972718E-3    4.366370553101767E-4
 1.100158463012396E5     6.950833281491320E-4   -8.263918681232219E-4    9.982798002738122E-1   -5.566635573866392E-4    1.001064112456353      -1.782194208757887E-3    6.456238713785645E-4    5.567494614106758E-4
 1.101578497267990E5     2.403100980831213E-3   -1.516788998832272E-3    1.001116938681517      -1.629667245553856E-3    1.002398330659970       2.978252818682803E-4    2.548463970448972E-3   -9.806050100133468E-5
 1.103000364438892E5     1.845283483150467E-3   -4.779788070370106E-4    1.001395539626867      -1.233821605659859E-3    1.001917891354642       6.897637996324396E-4    1.432921615890592E-3    4.284741804124609E-4
 1.104424066890945E5     5.505923084282438E-4    4.456147896560181E-5    1.000983923127937      -9.249631162418954E-4    1.001117581105173       9.657730740708394E-4    2.333924492046197E-3    4.528652911371667E-5
 1.105849606993044E5     2.154358586502564E-3   -1.905192867892105E-4    1.001504130095504      -7.760938674512136E-4    1.002996523122812      -8.343085456136851E-4    3.231185870395281E-3   -6.784609423216154E-4
 1.107276987117145E5     1.623657928680300E-3   -7.297939871609288E-4    1.000191911615762      -9.656646702068394E-4    1.002692379361044       1.045599171133997E-4    1.175760863671743E-3   -1.129680475159968E-3
 1.108706209638267E5     1.781870779820310E-3   -2.351459858903483E-3    1.001400154741135      -1.143123003076601E-3    1.000807586307535      -3.554372169230421E-4    1.671717060270139E-3   -1.777084142841820E-4
 1.110137276934487E5     6.418145296957778E-4   -9.894045904589033E-4    1.000147521427488      -2.558085306990032E-3    1.001235524125276       1.475538244165204E-3    1.470322128238721E-3   -5.496459268980666E-4
 1.111570191386958E5    -1.551699273091844E-5   -2.472252080064491E-4    9.990092794687705E-1   -8.799920229487709E-4    1.001044260537918      -2.008302079274833E-4    1.290273584773682E-3    4.173711400612123E-4
 1.113004955379905E5     1.569862234218566E-3   -1.456237343960429E-3    9.996467650251936E-1   -6.344219626611275E-4    1.000771931665621      -5.807168797519052E-4    1.304437176530865E-3    1.484760587945617E-3
 1.114441571300634E5     1.575389307996611E-3    8.561565158551193E-5    1.000343992085186       6.074259064123080E-4    1.002786625068165      -2.642141314042876E-3    1.152806275474511E-3    9.820668936191823E-7
 1.115880041539523E5     1.513057461016543E-3    2.219591563985129E-5    9.994413241560149E-1    9.711931197459514E-4    1.002625205138520      -1.037174090787487E-3    6.225279779707160E-4    4.115132523445156E-4
 1.117320368490043E5     8.079444515712852E-4   -1.260417012791740E-4    1.000343841715576      -1.532419346078229E-3    1.001009808654590      -1.188981515088144E-3    1.318365513060332E-3   -4.838593858444359E-4
 1.118762554548756E5     8.213723487044133E-4   -6.077612141159525E-4    1.002382788441963      -7.637213610046899E-4    1.001547557430355      -1.009170142686335E-3    2.634288984345562E-3   -2.830205430789934E-4
 1.120206602115309E5    -4.147666572329456E-5   -8.646371528344479E-4    9.992406938793619E-1   -3.523398455761266E-4    1.000888226728215      -6.572510094201151E-4    8.032583845011265E-4    3.326622994632433E-4
 1.121652513592452E5     3.222302609590388E-4   -9.147269279001363E-4    1.000398635968554      -7.641930510233104E-4    9.999845567255016E-1   -1.216736728626124E-3    1.497183184692136E-3   -6.815978033515163E-4
 1.123100291386038E5     2.210093923581125E-3   -2.184262460150493E-4    9.994283398562830E-1   -7.408805352837541E-4    1.001745524564647      -2.769986853737305E-6    2.261544962850304E-3   -1.039306823793863E-3
