#  HZ   S   RI   R     50.00 
! Rohde & Schwarz Vector Network Analyzer 
! Rohde-Schwarz,ZNB40-4Port,1311601084101740,3.32
! Created: UTC 3/2/2022, 8:05:03 AM
! freq[Hz]                re:S11                  im:S11                  re:S21                  im:S21                  re:S12                  im:S12                  re:S22                  im:S22
 1.000000000000000E5     1.671013650349606E-3    7.877083192194267E-4    9.983936610656625E-1   -1.583855309215680E-2    9.996441568709169E-1   -1.625004808607812E-2    9.526923572337753E-4    1.785079920758700E-3
 1.001290754289801E5     1.364068334930080E-3    8.044168985594374E-5    9.987016922974317E-1   -1.662927807570166E-2    1.000178349632685      -1.627093993039495E-2    2.326506245036553E-3    1.548301792153775E-3
 1.002583174626241E5     3.052714763408793E-4    1.307557364063003E-4    9.987638852005585E-1   -1.627434945714568E-2    9.982044218357127E-1   -1.463848521017186E-2    1.262074355078996E-3    2.560046477160197E-3
 1.003877263159772E5     2.120485941065536E-3    1.080630718402142E-3    9.992133121561730E-1   -1.609835255362996E-2    9.984424507012807E-1   -1.619166549932601E-2    2.622829816475658E-3    1.436676104127163E-3
 1.005173022043629E5     1.038384076816251E-3    1.369045227394630E-4    9.980132535918299E-1   -1.692774536468910E-2    9.989451780340800E-1   -1.617592874613546E-2    1.785036916856303E-3    9.103696493907437E-4
 1.006470453433824E5     2.118231159077555E-3    1.636966393304386E-3    1.000019770167744      -1.473426947093266E-2    9.987592961605140E-1   -1.614305799920091E-2    2.492221766056402E-3    3.170463115800694E-3
 1.007769559489154E5     8.241888878785797E-4    1.140620731252304E-3    1.000124675831445      -1.643941675990698E-2    9.979575107045480E-1   -1.397168446967765E-2    2.128339606716129E-3    2.446839070073564E-3
 1.009070342371195E5     2.331129152939065E-3    1.552507948872094E-3    9.975626783933225E-1   -1.657631426546953E-2    9.992158121389700E-1   -1.575930591452225E-2    7.206781853049404E-4    1.796328110150611E-3
 1.010372804244322E5     1.481357528630156E-3   -1.736892056702841E-4    9.989835906833586E-1   -1.597888654795140E-2    9.987738646460264E-1   -1.751109909144066E-2    3.229165890234392E-3    1.122650342563758E-3
 1.011676947275701E5    -2.129394517381977E-4    2.452899615766779E-3    9.975888046519448E-1   -1.601369251993117E-2    9.971245920388190E-1   -1.632091699417658E-2    6.768836523749211E-4    1.675645702198969E-3
 1.012982773635289E5     1.104343324517060E-3    7.620656366249812E-4    9.999771049484936E-1   -1.616494763218201E-2    9.987883399015925E-1   -1.584601658396730E-2    2.134641236607504E-3    1.301461454765215E-3
 1.014290285495854E5     7.316146551036018E-4    2.173232652462567E-3    9.986665269232790E-1   -1.563215236075250E-2    9.985466204033143E-1   -1.573335656269196E-2    9.047448874727748E-4    2.451863717777392E-3
 1.015599485032963E5     1.440683053104241E-3    7.602558685735963E-4    9.986375570064542E-1   -1.608396256438136E-2    9.968593511201423E-1   -1.610158825126599E-2   -5.494501912536864E-4    3.197627930180857E-3
 1.016910374424989E5     6.188133622830050E-4    1.627092864783172E-3    9.988096909640934E-1   -1.727628489133926E-2    9.995809561393084E-1   -1.505733906562907E-2    2.640840316921494E-3    2.073425756372149E-3
 1.018222955853121E5     7.193337842246461E-4    8.908598054209738E-4    9.988987055212321E-1   -1.555502867381705E-2    9.978524152316786E-1   -1.627402644549033E-2    1.997758980498948E-3    1.736326944368705E-3
 1.019537231501362E5     2.193384841627288E-3    1.573610800404100E-3    9.997107666911723E-1   -1.572804064666917E-2    9.977765818972505E-1   -1.558009026514603E-2    1.568597683701517E-3    1.249002854067927E-3
 1.020853203556537E5     2.159179478876644E-3    3.245655429253563E-5    9.989859515787881E-1   -1.657260982067865E-2    9.994978738053252E-1   -1.581264065271717E-2    1.426108135897025E-3    2.852266678320531E-3
 1.022170874208284E5     5.382979584813430E-4    4.956240244814239E-4    9.970730024407611E-1   -1.681187389677442E-2    9.979071193589785E-1   -1.667562408981975E-2   -7.775533760806530E-5    1.182251001903570E-3
 1.023490245649078E5     3.294146132227921E-3    6.356468681764579E-4    9.990116981645263E-1   -1.679968043632342E-2    9.992388001670228E-1   -1.569656605072603E-2    7.520862509413917E-4    9.288100096935259E-4
 1.024811320074221E5     2.020843606230838E-3    4.913852069254529E-4    9.999806138660148E-1   -1.598742909654847E-2    9.990978958843200E-1   -1.574695500586681E-2    1.145653272204727E-3    1.136294389491588E-3
 1.026134099681844E5     6.387772169303974E-4    9.207101759834066E-4    9.997338804604676E-1   -1.775120134454611E-2    9.977624027847468E-1   -1.720271618250133E-2    3.433738343901510E-3    1.012282639914111E-3
 1.027458586672919E5     1.168745467274551E-3    1.906144404959974E-3    9.990859583803935E-1   -1.700869690612372E-2    9.981320265540784E-1   -1.470722747629654E-2    1.445025553120843E-3    1.627582631953811E-3
 1.028784783251260E5     1.297470620813979E-3    2.232775789368396E-3    9.987867186208671E-1   -1.540854865314657E-2    9.982495032928285E-1   -1.558081948180923E-2    5.646069542052656E-4    1.782445998214283E-3
 1.030112691623526E5     1.750807520992770E-3    8.403945849135008E-4    9.986910730627229E-1   -1.717133296245869E-2    9.983003850027836E-1   -1.559399324164684E-2    1.618282285181183E-3    5.813310133437749E-4
 1.031442313999217E5     1.620434037505697E-3    1.815883963737080E-4    9.990960584036118E-1   -1.658739760481411E-2    9.981063682462649E-1   -1.733975943518704E-2    1.978346927799773E-3    1.808464647142391E-3
 1.032773652590694E5     4.141793548509132E-4    2.959191425006280E-4    9.994637359216569E-1   -1.630625817444193E-2    9.981873390378828E-1   -1.546484292651638E-2    1.256591498566467E-3    9.133867312321881E-4
 1.034106709613171E5     1.175272791689497E-3    2.440009601486104E-3    1.000024980936514      -1.647266014176300E-2    9.990567768765732E-1   -1.468467128339689E-2    2.247966118552991E-3    2.300394963792390E-3
 1.035441487284716E5     2.979199009463251E-4    1.929743018076108E-3    9.976765563601296E-1   -1.608507532082976E-2    9.987416064396420E-1   -1.615649537987166E-2    1.262615074053508E-3    8.163476244370804E-4
 1.036777987826267E5     1.620196923722700E-3   -3.702512271426539E-5    9.976258887969527E-1   -1.727313946804422E-2    9.973608742189012E-1   -1.620641480645240E-2    1.240728464287716E-3    7.571629535218505E-4
 1.038116213461627E5     2.874153689290559E-3    8.178252955116164E-4    9.984144246398312E-1   -1.601742893671490E-2    9.985958572728925E-1   -1.604764807636374E-2   -1.028562992149151E-4    2.354084892091435E-3
 1.039456166417465E5     2.324996871434809E-3    8.825678144354296E-4    9.997239026040482E-1   -1.664644402921952E-2    9.993027320720391E-1   -1.546434716826632E-2    1.234307565074644E-3    1.711701400165550E-3
 1.040797848923328E5     1.225710063660373E-3    9.776837737430766E-4    9.985376732742621E-1   -1.670750282626513E-2    9.990397832173471E-1   -1.732739887253886E-2   -9.898953682498657E-4    8.630246869133079E-4
 1.042141263211641E5    -4.167978754349155E-4    1.300381210772028E-3    9.961178595168595E-1   -1.576926329022132E-2    9.978814510899486E-1   -1.683022116132028E-2   -2.896183484069892E-4    1.793701219173327E-3
 1.043486411517713E5     1.948956362219062E-3    1.156138545624755E-3    9.995423393722025E-1   -1.611970174905531E-2    9.980362257260686E-1   -1.603996676571721E-2    1.748012293733364E-3    2.755378731833472E-3
 1.044833296079728E5     1.792056509636181E-3    3.626507971240256E-4    9.991780226213821E-1   -1.583733438605895E-2    9.965880614992837E-1   -1.670283649934042E-2    1.720443115853898E-3    1.497457578594236E-3
 1.046181919138770E5     9.147318809372418E-4    2.373256683516602E-3    9.976283176617906E-1   -1.657246006616684E-2    9.981196358768321E-1   -1.604313904876280E-2    1.463594422174308E-3    1.069929204162684E-3
 1.047532282938813E5     1.519962676416381E-3    5.422461437211215E-4    9.996352634338147E-1   -1.765107788657843E-2    9.995779891258613E-1   -1.741293391921689E-2    2.275364029360377E-3    3.098139890791024E-4
 1.048884389726721E5     6.903373119787892E-4    9.067585103306880E-4    9.977490042017055E-1   -1.786388594750196E-2    9.972353951670165E-1   -1.595858763459286E-2    1.559101246852157E-4   -5.804233948889653E-4
 1.050238241752266E5     1.650612699330922E-3    1.125885220808656E-3    9.983174097317983E-1   -1.610579380118349E-2    9.995165483446506E-1   -1.793778625637841E-2    1.640635480040203E-3    1.674105453700531E-3
 1.051593841268121E5     9.434744773331172E-4    4.794655488249422E-6    9.991987894999003E-1   -1.612080335194847E-2    9.973035357393437E-1   -1.748768509945598E-2    8.389993343194957E-4    1.070658752532691E-3
 1.052951190529868E5     3.634099307075478E-4    4.273908634890716E-5    9.979738777363721E-1   -1.784694921305233E-2    9.974589973604310E-1   -1.653749549588092E-2    1.166878976192387E-3    2.982718835174800E-3
 1.054310291795996E5     1.602070798041394E-3    3.657679728085450E-4    9.972792766052572E-1   -1.846036485805922E-2    9.991123715860003E-1   -1.680540119870737E-2    1.583491414834881E-3    1.332762754189726E-3
 1.055671147327913E5     1.512620180797092E-3    1.934316133201573E-3    9.992734506929450E-1   -1.765814416588841E-2    9.979731833126235E-1   -1.679282726317087E-2    2.128106438866878E-3    1.079936720471408E-3
 1.057033759389948E5     8.626585769845319E-4    1.077528357058682E-3    9.990790393881787E-1   -1.768025949587332E-2    9.982419848122370E-1   -1.514679991938585E-2    9.704860415759020E-4    8.259025628125777E-4
 1.058398130249345E5     1.559999494409076E-3    1.355614358803089E-3    9.981785983537649E-1   -1.743273500415437E-2    9.977324423133228E-1   -1.669313670558858E-2    4.983805974239641E-4    1.054036160106533E-3
 1.059764262176281E5    -4.026711673990324E-4    1.125405316257891E-3    9.987265704720657E-1   -1.548708461728598E-2    9.965464133837463E-1   -1.596931618527093E-2    1.063315003800885E-3    1.468150577602967E-3
 1.061132157443865E5     1.513339803106001E-3    7.722984990518184E-4    9.987503206845646E-1   -1.807106443964467E-2    9.988145144267260E-1   -1.690600235050016E-2    5.208576933942166E-4    1.463643010636520E-3
 1.062501818328132E5     1.117429259085145E-3   -7.354253330325439E-4    9.995432893999774E-1   -1.893152254012197E-2    9.980602277661603E-1   -1.681348448251795E-2    3.011715613953414E-3    4.666442729288900E-4
 1.063873247108060E5     1.334870798384791E-3    1.942187298446633E-3    9.988026300670948E-1   -1.667996651822586E-2    9.990968382729788E-1   -1.484857043964672E-2    1.425280464758982E-3    9.469424401525872E-4
 1.065246446065569E5     1.414556545138140E-3    2.200603314906832E-4    9.994523037044618E-1   -1.793961102295112E-2    9.973742357456140E-1   -1.793672715850706E-2    1.550214761043917E-3    8.940033819954396E-4
 1.066621417485526E5     2.014436289265953E-3    7.163149907488953E-4    9.986671736858795E-1   -1.852411590559147E-2    9.984633392515944E-1   -1.736541823655662E-2    9.336419532343376E-4    1.762837276408205E-3
 1.067998163655739E5     1.095695130590796E-3    1.378571238046772E-3    9.992433334897892E-1   -1.780044966023706E-2    9.973140954723273E-1   -1.807947967848878E-2    3.054877861062566E-4    4.808315928875179E-4
 1.069376686866977E5     3.517249394439093E-4    1.187828909801604E-3    9.987699700934052E-1   -1.586073600638167E-2    9.980940445394509E-1   -1.595550451749186E-2    1.401988194479092E-3    2.392374611109874E-3
 1.070756989412966E5     2.263241762719054E-3    3.368007624089051E-4    9.989618978878300E-1   -1.771861385859008E-2    9.978470484783288E-1   -1.695670846611186E-2    2.668761089499871E-4    1.798667197553588E-3
 1.072139073590385E5     6.011161117768504E-4   -6.430236876346501E-4    9.992508795074498E-1   -1.770510313511219E-2    9.972817446107853E-1   -1.683269771644514E-2    2.055203721973042E-3    1.336863243660349E-3
 1.073522941698885E5     4.848550428881160E-4    5.604980145925073E-4    9.978188587277317E-1   -1.816926780469769E-2    9.975354819917936E-1   -1.656256128513720E-2    1.583808774736628E-3    7.751939241325417E-4
 1.074908596041083E5     2.314915719560551E-3    1.213776624701957E-6    9.989476733211730E-1   -1.684456187629127E-2    9.988346667577155E-1   -1.712649043103067E-2    1.078117513254734E-3    9.331213730529586E-4
 1.076296038922569E5     3.663385927233365E-4    1.088356962994197E-3    9.973726403388142E-1   -1.740735999524104E-2    9.975425471488951E-1   -1.569259554087727E-2    6.603216498034525E-4    1.929432517717655E-3
 1.077685272651904E5     1.658561423602350E-3    1.155863984382548E-3    9.989450131340074E-1   -1.840292905894675E-2    9.983094631235571E-1   -1.738086238382997E-2    1.689930733819789E-3   -4.061663368486595E-4
 1.079076299540635E5     3.769746711259347E-4    4.103019978827713E-4    9.990744062275271E-1   -1.914412960690085E-2    9.979198361104961E-1   -1.750907964930869E-2    8.460724150144983E-4   -4.011256102615102E-5
 1.080469121903292E5     2.247145705991188E-3    8.661103395430081E-4    9.989240214705131E-1   -1.801997095451604E-2    9.974727183145031E-1   -1.615730360983192E-2    7.001619293379446E-4    1.185006158703483E-3
 1.081863742057386E5     1.181640220264180E-3    1.239352283325217E-3    9.995302221434389E-1   -1.698071850847543E-2    9.978514236393599E-1   -1.798299617444728E-2    1.795142862215937E-3    1.635772878599590E-3
 1.083260162323427E5     1.781340669674975E-3    1.106443410043768E-3    9.977329634658273E-1   -1.748189326436308E-2    9.973584777211887E-1   -1.745728647121541E-2    2.242023344364075E-3    1.932651980711908E-3
 1.084658385024919E5     1.999568719530193E-3   -6.847229684226047E-4    9.993769083407964E-1   -1.853241081663744E-2    1.000223859723914      -1.837056591984245E-2    1.458247479525970E-3   -9.291208250909733E-5
 1.086058412488358E5     1.423226585521853E-3    8.763007373046999E-4    9.973170665181317E-1   -1.826389480372855E-2    9.987816420982144E-1   -1.737097339774597E-2    1.987486617765155E-3    1.122735036973702E-3
 1.087460247043252E5     1.581744780903976E-3    1.010973826468600E-4    9.976168331794604E-1   -1.810518909604884E-2    9.982033228385619E-1   -1.670886805238449E-2    6.319715261565162E-4    1.487560333223850E-3
 1.088863891022111E5     2.627885366275812E-3    7.377629298330884E-5    9.986616004469464E-1   -1.738727931591246E-2    9.974346818335021E-1   -1.771340509212517E-2    7.903133928370276E-4    1.710164710115827E-3
 1.090269346760460E5     1.109169246193975E-3    2.653479416217797E-4    9.988328735111769E-1   -1.809941993076519E-2    9.993625655410472E-1   -1.754235709200527E-2    1.425474805481941E-3    9.881585147393790E-4
 1.091676616596829E5     1.856801544635744E-4    1.108366905114143E-3    9.983166954678536E-1   -1.933548984477795E-2    9.981510799708360E-1   -1.903443470065092E-2    7.974938398275233E-5   -5.504674733491921E-4
 1.093085702872777E5     2.399492706466860E-3    8.454864913447074E-4    9.990379160093584E-1   -1.741455622273732E-2    9.993351812163535E-1   -1.642206428136284E-2    1.615554322999840E-3    1.556933207245398E-3
 1.094496607932882E5     1.477124214855907E-3    1.359642072282737E-3    9.992204729731933E-1   -1.852902058297968E-2    9.978388146871243E-1   -1.600150059493675E-2    1.277842844565530E-3    1.820478384331123E-3
 1.095909334124744E5     1.758465045106877E-3    2.444669757367943E-3    9.987494767630856E-1   -1.792706800006716E-2    9.987735389755743E-1   -1.614520390239280E-2    2.130973761969801E-3    1.639177690939103E-3
 1.097323883798999E5     9.863822763519769E-4    1.009240052620181E-3    9.984477859500773E-1   -1.854528267495363E-2    9.975566478018476E-1   -1.772639313570434E-2    1.460787631406418E-3    1.235015903336328E-3
 1.098740259309313E5     1.094329877788791E-3    4.468380752853107E-4    9.970564517265237E-1   -1.802358370373792E-2    9.981265041899068E-1   -1.673309084817116E-2    1.508581384258217E-3    1.359131278625331E-3
 1.100158463012396E5     1.534781767538074E-3    1.050695838900113E-3    9.977389147365586E-1   -1.883481020744646E-2    9.977675332318915E-1   -1.815013778516408E-2    1.921297319713022E-4    7.686624688541671E-4
 1.101578497267990E5     2.324618132065026E-3    9.649075602070206E-5    1.000845503286429      -1.861909929403665E-2    9.985661425812528E-1   -1.701961168125720E-2    1.466331461980525E-3    7.888043322700072E-4
 1.103000364438892E5     1.401956649767500E-3    1.507748631559974E-3    9.999281761029255E-1   -1.816971659648201E-2    9.987451246834580E-1   -1.649606871617708E-2    1.115218936809326E-3    1.982804592090257E-3
 1.104424066890945E5     1.147057816668601E-3    5.207010229362694E-4    9.977431520612602E-1   -1.889452798692605E-2    9.985478100078886E-1   -1.672082303722166E-2    6.908379545859655E-4    1.132608262644955E-3
 1.105849606993044E5     2.300519576742377E-3    9.396835336912407E-4    9.993547134964194E-1   -1.929889575110112E-2    9.987252147428297E-1   -1.861017981443745E-2    2.759122487975552E-3    9.581413947737372E-4
 1.107276987117145E5     2.007156958841960E-3    4.000411894423614E-4    9.980100723249198E-1   -1.814309318437465E-2    9.992694012519144E-1   -1.645324347725857E-2    9.692619739559150E-4    5.842190672016717E-4
 1.108706209638267E5     2.748153382669677E-3    4.143417100674548E-4    9.988868866337504E-1   -1.777215168290401E-2    9.973506891531597E-1   -1.744685179228755E-2    3.705799678831168E-4    1.751998932563475E-3
 1.110137276934487E5     1.033416037158535E-3    4.304034290565500E-4    9.986476357737679E-1   -1.975712073752429E-2    9.987361527413477E-1   -1.640682839576552E-2    1.943388436011384E-3    7.686579985467512E-4
 1.111570191386958E5     2.173692258138266E-3    7.153547556262921E-4    9.978120619680677E-1   -1.776041204024131E-2    9.982525549424699E-1   -1.712072950761067E-2    8.902037945274499E-4    2.489354034747829E-3
 1.113004955379905E5     1.521545496606769E-3    1.784479402704375E-3    9.985672883781125E-1   -1.821742261849726E-2    9.973405458409244E-1   -1.731104734672027E-2    2.853677892276918E-4    3.454318425109959E-3
 1.114441571300634E5     1.584702617909106E-3    7.945070125782785E-4    9.984766738996415E-1   -1.560587413923618E-2    9.975634088569536E-1   -1.921815501180938E-2    6.940150827086100E-4    1.609883955259628E-3
 1.115880041539523E5     1.545480324910115E-3    1.065510359854284E-3    9.978093872745195E-1   -1.696836849525362E-2    9.984374630354953E-1   -1.742807347023078E-2    1.080996197857537E-3    2.080411095577758E-3
 1.117320368490043E5     8.797543826833398E-4    1.072545673518346E-3    9.981701521503904E-1   -1.807460851126309E-2    9.980771478048867E-1   -1.759091286821562E-2    7.540530467118334E-4    1.724901975407478E-3
 1.118762554548756E5     1.564406470676738E-3    3.380773232181458E-4    9.993398041543747E-1   -1.749541277762494E-2    9.984321766263416E-1   -1.786581087496321E-2    1.367350159159897E-3    1.415065009082714E-3
 1.120206602115309E5     1.246208795737558E-3    6.529458973770358E-5    9.981617899593808E-1   -1.819005535553255E-2    9.980640169443454E-1   -1.687135070552113E-2   -3.807555857854028E-4    1.461682976386436E-3
 1.121652513592452E5     8.569646159765909E-4    7.860118908946043E-4    9.980285061169687E-1   -1.773707340241364E-2    9.979121802744203E-1   -1.756592901589456E-2    5.091882904363076E-4    1.714078925538071E-3
 1.123100291386038E5     1.759118330494441E-3    1.436427838705887E-3    9.979420516386772E-1   -1.820707764181367E-2    9.975427745659924E-1   -1.738940830005099E-2    1.227142877385790E-3    1.115333390075288E-3
